* T-Spice 13.00 Simulation	Wed Jul 13 14:45:09 2016	C:\Users\Mainak\Desktop\vlsi\1.24ps delay inverter.sp
* Command line: tspice -o "C:\Users\Mainak\Desktop\vlsi\1.24ps delay inverter.out" "C:\Users\Mainak\Desktop\vlsi\1.24ps delay inverter.sp" 
* T-Spice Win32 13.00.20080321.01:01:33

*SEDIT: Alter blocks = 0

* Accuracy and Convergence options:
* numndset|dchold = 100
* 
* Timestep and Integration options:
*  relq|relchgtol = 0.0005
* 
* Model Evaluation options:
*            dcap = 2                    defnrb = 0 [sq]               defnrd = 0 [sq]
*          defnrs = 0 [sq]                 tnom = 25 [deg C]
* 
* General options:
*            temp = 25 [deg C]          threads = 4
* 
* Output options:
*           acout = 1                    ingold = 0
* 


*  Device and node counts:
*             MOSFETs - 2                 MOSFET geometries - 4       
*                BJTs - 0                             JFETs - 0       
*             MESFETs - 0                            Diodes - 0       
*          Capacitors - 1                         Resistors - 0       
*           Inductors - 0                  Mutual inductors - 0       
*  Transmission lines - 0        Coupled transmission lines - 0       
*     Voltage sources - 2                   Current sources - 0       
*                VCVS - 0                              VCCS - 0       
*                CCVS - 0                              CCCS - 0       
*    V-control switch - 0                  I-control switch - 0       
*       Macro devices - 0        External C model instances - 0       
*         HDL devices - 0       
*         Subcircuits - 0              Subcircuit instances - 0       
*   Independent nodes - 9                    Boundary nodes - 3       
*         Total nodes - 12      


*SEDIT: Alter=0
*SEDIT: Analysis types DCOP 0 ACMODEL 0 AC 0 TRANSIENT 1 TRANSFER 0 NOISE 0 

*WEDIT: .tran   1e-012   5e-010
TRANSIENT ANALYSIS
Time<s>          v(N_1)<V>    v(N_2)<V>
 0.000000e+000  8.9998e-001  0.0000e+000
 6.250000e-014  9.2251e-001  2.2500e-001
 1.875000e-013  9.9901e-001  6.7500e-001
 2.500000e-013  1.0383e+000  9.0000e-001
 3.291940e-013  1.0583e+000  9.0000e-001
 6.031392e-013  9.9251e-001  9.0000e-001
 1.274625e-012  7.2827e-001  9.0000e-001
 2.059766e-012  3.8285e-001  9.0000e-001
 2.862693e-012  1.5587e-001  9.0000e-001
 3.875638e-012  2.8338e-002  9.0000e-001
 5.580470e-012 -1.1952e-003  9.0000e-001
 7.580470e-012 -2.6117e-004  9.0000e-001
 9.580470e-012  4.8385e-004  9.0000e-001
 1.158047e-011 -4.4020e-004  9.0000e-001
 1.358047e-011  3.8197e-004  9.0000e-001
 1.558047e-011 -3.0292e-004  9.0000e-001
 1.758047e-011  2.6449e-004  9.0000e-001
 1.958047e-011 -2.1183e-004  9.0000e-001
 2.158047e-011  1.9183e-004  9.0000e-001
 2.358047e-011 -1.5633e-004  9.0000e-001
 2.558047e-011  1.4736e-004  9.0000e-001
 2.758047e-011 -1.2187e-004  9.0000e-001
 2.958047e-011  1.1953e-004  9.0000e-001
 3.158047e-011 -1.0081e-004  9.0000e-001
 3.358047e-011  1.0192e-004  9.0000e-001
 3.558047e-011 -8.6527e-005  9.0000e-001
 3.758047e-011  9.0079e-005  9.0000e-001
 3.958047e-011 -7.6710e-005  9.0000e-001
 4.158047e-011  8.1786e-005  9.0000e-001
 4.358047e-011 -6.9663e-005  9.0000e-001
 4.558047e-011  7.5681e-005  9.0000e-001
 4.758047e-011 -6.4333e-005  9.0000e-001
 4.958047e-011  7.0942e-005  9.0000e-001
 5.158047e-011 -6.0086e-005  9.0000e-001
 5.358047e-011  6.7072e-005  9.0000e-001
 5.558047e-011 -5.6536e-005  9.0000e-001
 5.758047e-011  6.3773e-005  9.0000e-001
 5.958047e-011 -5.3454e-005  9.0000e-001
 6.158047e-011  6.0862e-005  9.0000e-001
 6.358047e-011 -5.0695e-005  9.0000e-001
 6.558047e-011  5.8226e-005  9.0000e-001
 6.758047e-011 -4.8174e-005  9.0000e-001
 6.958047e-011  5.5798e-005  9.0000e-001
 7.158047e-011 -4.5834e-005  9.0000e-001
 7.358047e-011  5.3534e-005  9.0000e-001
 7.558047e-011 -4.3643e-005  9.0000e-001
 7.758047e-011  5.1404e-005  9.0000e-001
 7.958047e-011 -4.1576e-005  9.0000e-001
 8.158047e-011  4.9391e-005  9.0000e-001
 8.358047e-011 -3.9619e-005  9.0000e-001
 8.558047e-011  4.7482e-005  9.0000e-001
 8.758047e-011 -3.7760e-005  9.0000e-001
 8.958047e-011  4.5668e-005  9.0000e-001
 9.158047e-011 -3.5992e-005  9.0000e-001
 9.358047e-011  4.3941e-005  9.0000e-001
 9.558047e-011 -3.4309e-005  9.0000e-001
 9.758047e-011  4.2296e-005  9.0000e-001
 9.958047e-011 -3.2705e-005  9.0000e-001
 1.015804e-010  4.0727e-005  9.0000e-001
 1.035804e-010 -3.1175e-005  9.0000e-001
 1.055804e-010  3.9232e-005  9.0000e-001
 1.075804e-010 -2.6803e-005  9.0000e-001
 1.095804e-010  4.0133e-005  9.0000e-001
 1.115804e-010 -2.6116e-005  9.0000e-001
 1.135804e-010  3.8908e-005  9.0000e-001
 1.155804e-010 -2.4998e-005  9.0000e-001
 1.175804e-010  3.7589e-005  9.0000e-001
 1.195804e-010 -2.3869e-005  9.0000e-001
 1.215804e-010  3.6293e-005  9.0000e-001
 1.235804e-010 -2.2772e-005  9.0000e-001
 1.255804e-010  3.5041e-005  9.0000e-001
 1.275804e-010 -2.1716e-005  9.0000e-001
 1.295804e-010  3.3839e-005  9.0000e-001
 1.315804e-010 -2.0704e-005  9.0000e-001
 1.335804e-010  3.2687e-005  9.0000e-001
 1.355804e-010 -1.9737e-005  9.0000e-001
 1.375804e-010  3.1587e-005  9.0000e-001
 1.395804e-010 -1.8813e-005  9.0000e-001
 1.415804e-010  3.0535e-005  9.0000e-001
 1.435804e-010 -1.7931e-005  9.0000e-001
 1.455804e-010  2.9530e-005  9.0000e-001
 1.475804e-010 -1.7090e-005  9.0000e-001
 1.495804e-010  2.8571e-005  9.0000e-001
 1.515804e-010 -1.6286e-005  9.0000e-001
 1.535804e-010  2.7654e-005  9.0000e-001
 1.555804e-010 -1.5520e-005  9.0000e-001
 1.575804e-010  2.6779e-005  9.0000e-001
 1.595804e-010 -1.4789e-005  9.0000e-001
 1.615804e-010  2.5943e-005  9.0000e-001
 1.635804e-010 -1.4091e-005  9.0000e-001
 1.655804e-010  2.5144e-005  9.0000e-001
 1.675804e-010 -1.3425e-005  9.0000e-001
 1.695804e-010  2.4382e-005  9.0000e-001
 1.715804e-010 -1.2789e-005  9.0000e-001
 1.735804e-010  2.3654e-005  9.0000e-001
 1.755804e-010 -1.2182e-005  9.0000e-001
 1.775804e-010  2.2958e-005  9.0000e-001
 1.795804e-010 -1.1603e-005  9.0000e-001
 1.802500e-010  2.3390e-005  9.0000e-001
 1.805000e-010 -1.2774e-001  0.0000e+000
 1.806250e-010 -1.4239e-001  0.0000e+000
 1.809837e-010 -8.5220e-002  0.0000e+000
 1.814307e-010  8.3446e-002  0.0000e+000
 1.820850e-010  2.8479e-001  0.0000e+000
 1.829614e-010  5.1158e-001  0.0000e+000
 1.840675e-010  7.1181e-001  0.0000e+000
 1.855532e-010  8.4331e-001  0.0000e+000
 1.875532e-010  8.9085e-001  0.0000e+000
 1.895532e-010  8.9866e-001  0.0000e+000
 1.915532e-010  8.9965e-001  0.0000e+000
 1.935532e-010  9.0004e-001  0.0000e+000
 1.955532e-010  8.9988e-001  0.0000e+000
 1.975532e-010  9.0007e-001  0.0000e+000
 1.995532e-010  8.9989e-001  0.0000e+000
 2.015532e-010  9.0006e-001  0.0000e+000
 2.035532e-010  8.9990e-001  0.0000e+000
 2.055532e-010  9.0005e-001  0.0000e+000
 2.075532e-010  8.9991e-001  0.0000e+000
 2.095532e-010  9.0005e-001  0.0000e+000
 2.115532e-010  8.9991e-001  0.0000e+000
 2.135532e-010  9.0004e-001  0.0000e+000
 2.155532e-010  8.9991e-001  0.0000e+000
 2.175532e-010  9.0004e-001  0.0000e+000
 2.195532e-010  8.9992e-001  0.0000e+000
 2.215532e-010  9.0004e-001  0.0000e+000
 2.235532e-010  8.9992e-001  0.0000e+000
 2.255532e-010  9.0003e-001  0.0000e+000
 2.275532e-010  8.9992e-001  0.0000e+000
 2.295532e-010  9.0003e-001  0.0000e+000
 2.315532e-010  8.9993e-001  0.0000e+000
 2.335532e-010  9.0003e-001  0.0000e+000
 2.355532e-010  8.9993e-001  0.0000e+000
 2.375532e-010  9.0003e-001  0.0000e+000
 2.395532e-010  8.9993e-001  0.0000e+000
 2.415532e-010  9.0002e-001  0.0000e+000
 2.435532e-010  8.9993e-001  0.0000e+000
 2.455532e-010  9.0002e-001  0.0000e+000
 2.475532e-010  8.9993e-001  0.0000e+000
 2.495532e-010  9.0002e-001  0.0000e+000
 2.515532e-010  8.9994e-001  0.0000e+000
 2.535532e-010  9.0002e-001  0.0000e+000
 2.555532e-010  8.9994e-001  0.0000e+000
 2.575532e-010  9.0002e-001  0.0000e+000
 2.595532e-010  8.9994e-001  0.0000e+000
 2.615532e-010  9.0002e-001  0.0000e+000
 2.635532e-010  8.9994e-001  0.0000e+000
 2.655532e-010  9.0001e-001  0.0000e+000
 2.675532e-010  8.9994e-001  0.0000e+000
 2.695532e-010  9.0001e-001  0.0000e+000
 2.715532e-010  8.9995e-001  0.0000e+000
 2.735532e-010  9.0001e-001  0.0000e+000
 2.755532e-010  8.9995e-001  0.0000e+000
 2.775532e-010  9.0001e-001  0.0000e+000
 2.795532e-010  8.9995e-001  0.0000e+000
 2.815532e-010  9.0000e-001  0.0000e+000
 2.835532e-010  8.9994e-001  0.0000e+000
 2.855532e-010  9.0000e-001  0.0000e+000
 2.875532e-010  8.9994e-001  0.0000e+000
 2.895532e-010  9.0000e-001  0.0000e+000
 2.915532e-010  8.9995e-001  0.0000e+000
 2.935532e-010  9.0000e-001  0.0000e+000
 2.955532e-010  8.9995e-001  0.0000e+000
 2.975532e-010  9.0000e-001  0.0000e+000
 2.995532e-010  8.9995e-001  0.0000e+000
 3.015532e-010  9.0000e-001  0.0000e+000
 3.035532e-010  8.9995e-001  0.0000e+000
 3.055532e-010  9.0000e-001  0.0000e+000
 3.075532e-010  8.9995e-001  0.0000e+000
 3.095532e-010  9.0000e-001  0.0000e+000
 3.115532e-010  8.9995e-001  0.0000e+000
 3.135532e-010  9.0000e-001  0.0000e+000
 3.155532e-010  8.9995e-001  0.0000e+000
 3.175532e-010  9.0000e-001  0.0000e+000
 3.195532e-010  8.9995e-001  0.0000e+000
 3.215532e-010  8.9999e-001  0.0000e+000
 3.235532e-010  8.9995e-001  0.0000e+000
 3.255532e-010  8.9999e-001  0.0000e+000
 3.275532e-010  8.9996e-001  0.0000e+000
 3.295532e-010  8.9999e-001  0.0000e+000
 3.315532e-010  8.9996e-001  0.0000e+000
 3.335532e-010  8.9999e-001  0.0000e+000
 3.355532e-010  8.9996e-001  0.0000e+000
 3.375532e-010  8.9999e-001  0.0000e+000
 3.395532e-010  8.9996e-001  0.0000e+000
 3.415532e-010  8.9999e-001  0.0000e+000
 3.435532e-010  8.9996e-001  0.0000e+000
 3.455532e-010  8.9999e-001  0.0000e+000
 3.475532e-010  8.9996e-001  0.0000e+000
 3.495532e-010  8.9999e-001  0.0000e+000
 3.515532e-010  8.9996e-001  0.0000e+000
 3.535532e-010  8.9999e-001  0.0000e+000
 3.555532e-010  8.9996e-001  0.0000e+000
 3.575532e-010  8.9999e-001  0.0000e+000
 3.595532e-010  8.9996e-001  0.0000e+000
 3.615532e-010  8.9999e-001  0.0000e+000
 3.635532e-010  8.9996e-001  0.0000e+000
 3.655532e-010  8.9999e-001  0.0000e+000
 3.675532e-010  8.9996e-001  0.0000e+000
 3.695532e-010  8.9999e-001  0.0000e+000
 3.715532e-010  8.9996e-001  0.0000e+000
 3.735532e-010  8.9999e-001  0.0000e+000
 3.755532e-010  8.9996e-001  0.0000e+000
 3.775532e-010  8.9999e-001  0.0000e+000
 3.795532e-010  8.9996e-001  0.0000e+000
 3.815532e-010  8.9999e-001  0.0000e+000
 3.835532e-010  8.9996e-001  0.0000e+000
 3.855532e-010  8.9999e-001  0.0000e+000
 3.875532e-010  8.9997e-001  0.0000e+000
 3.895532e-010  8.9999e-001  0.0000e+000
 3.915532e-010  8.9997e-001  0.0000e+000
 3.935532e-010  8.9999e-001  0.0000e+000
 3.955532e-010  8.9997e-001  0.0000e+000
 3.975532e-010  8.9999e-001  0.0000e+000
 3.995532e-010  8.9997e-001  0.0000e+000
 4.000000e-010  8.9998e-001  0.0000e+000
 4.002500e-010  1.0225e+000  9.0000e-001
 4.003750e-010  1.0251e+000  9.0000e-001
 4.007374e-010  9.2580e-001  9.0000e-001
 4.011952e-010  7.0511e-001  9.0000e-001
 4.017809e-010  4.6058e-001  9.0000e-001
 4.024928e-010  2.1912e-001  9.0000e-001
 4.033636e-010  6.1589e-002  9.0000e-001
 4.046822e-010  3.3545e-003  9.0000e-001
 4.066822e-010 -2.4462e-004  9.0000e-001
 4.086822e-010 -2.3434e-004  9.0000e-001
 4.106822e-010  3.3434e-004  9.0000e-001
 4.126822e-010 -3.4639e-004  9.0000e-001
 4.146822e-010  3.5537e-004  9.0000e-001
 4.166822e-010 -3.4173e-004  9.0000e-001
 4.186822e-010  3.4553e-004  9.0000e-001
 4.206822e-010 -3.2970e-004  9.0000e-001
 4.226822e-010  3.3264e-004  9.0000e-001
 4.246822e-010 -3.1633e-004  9.0000e-001
 4.266822e-010  3.1905e-004  9.0000e-001
 4.286822e-010 -3.0272e-004  9.0000e-001
 4.306822e-010  3.0547e-004  9.0000e-001
 4.326822e-010 -2.8931e-004  9.0000e-001
 4.346822e-010  2.9219e-004  9.0000e-001
 4.366822e-010 -2.7628e-004  9.0000e-001
 4.386822e-010  2.7936e-004  9.0000e-001
 4.406822e-010 -2.6374e-004  9.0000e-001
 4.426822e-010  2.6703e-004  9.0000e-001
 4.446822e-010 -2.5172e-004  9.0000e-001
 4.466822e-010  2.5523e-004  9.0000e-001
 4.486822e-010 -2.4022e-004  9.0000e-001
 4.506822e-010  2.4395e-004  9.0000e-001
 4.526822e-010 -2.2924e-004  9.0000e-001
 4.546822e-010  2.3318e-004  9.0000e-001
 4.566822e-010 -2.1876e-004  9.0000e-001
 4.586822e-010  2.2291e-004  9.0000e-001
 4.606822e-010 -2.0876e-004  9.0000e-001
 4.626822e-010  2.1311e-004  9.0000e-001
 4.646822e-010 -1.9922e-004  9.0000e-001
 4.666822e-010  2.0377e-004  9.0000e-001
 4.686822e-010 -1.9013e-004  9.0000e-001
 4.706822e-010  1.9486e-004  9.0000e-001
 4.726822e-010 -1.8145e-004  9.0000e-001
 4.746822e-010  1.8636e-004  9.0000e-001
 4.766822e-010 -1.7318e-004  9.0000e-001
 4.786822e-010  1.7826e-004  9.0000e-001
 4.806822e-010 -1.6529e-004  9.0000e-001
 4.826822e-010  1.7053e-004  9.0000e-001
 4.846822e-010 -1.5777e-004  9.0000e-001
 4.866822e-010  1.6316e-004  9.0000e-001
 4.886822e-010 -1.5036e-004  9.0000e-001
 4.906822e-010  1.5607e-004  9.0000e-001
 4.926822e-010 -1.4374e-004  9.0000e-001
 4.946822e-010  1.4943e-004  9.0000e-001
 4.966822e-010 -1.3743e-004  9.0000e-001
 4.986822e-010  1.4329e-004  9.0000e-001
 5.000000e-010 -1.2982e-004  9.0000e-001
*

* Parsing                      0.01 seconds
* Setup                        0.03 seconds
* DC operating point           0.01 seconds
* Transient Analysis           0.11 seconds
* Overhead                     3.16 seconds
* -----------------------------------------
* Total                        3.33 seconds

* Simulation completed

* End of T-Spice output file
