* T-Spice 13.00 Simulation	Fri Jul 22 09:55:23 2016	C:\Users\Mainak\Desktop\vlsi\Cell1.sp
* Command line: tspice -o C:\Users\Mainak\Desktop\vlsi\Cell1.out C:\Users\Mainak\Desktop\vlsi\Cell1.sp 
* T-Spice Win32 13.00.20080321.01:01:33

*SEDIT: Alter blocks = 0

* Accuracy and Convergence options:
* numndset|dchold = 100
* 
* Timestep and Integration options:
*  relq|relchgtol = 0.0005
* 
* Model Evaluation options:
*            dcap = 2                    defnrb = 0 [sq]               defnrd = 0 [sq]
*          defnrs = 0 [sq]                 tnom = 25 [deg C]
* 
* General options:
*            temp = 25 [deg C]          threads = 4
* 
* Output options:
*           acout = 1                    ingold = 0
* 


*  Device and node counts:
*             MOSFETs - 10                MOSFET geometries - 8       
*                BJTs - 0                             JFETs - 0       
*             MESFETs - 0                            Diodes - 0       
*          Capacitors - 2                         Resistors - 0       
*           Inductors - 0                  Mutual inductors - 0       
*  Transmission lines - 0        Coupled transmission lines - 0       
*     Voltage sources - 3                   Current sources - 0       
*                VCVS - 0                              VCCS - 0       
*                CCVS - 0                              CCCS - 0       
*    V-control switch - 0                  I-control switch - 0       
*       Macro devices - 0        External C model instances - 0       
*         HDL devices - 0       
*         Subcircuits - 0              Subcircuit instances - 0       
*   Independent nodes - 44                   Boundary nodes - 4       
*         Total nodes - 48      


*SEDIT: Alter=0
*SEDIT: Analysis types DCOP 0 ACMODEL 0 AC 0 TRANSIENT 1 TRANSFER 0 NOISE 0 

*WEDIT: .tran   1e-012   5e-010
TRANSIENT ANALYSIS
Time<s>        v(N_2,Gnd)<V>  v(N_4,Gnd)<V>    v(N_5)<V>
 0.000000e+000  6.6237e-001  0.0000e+000  0.0000e+000
 6.250000e-014  6.6400e-001  0.0000e+000  5.6250e-002
 5.625000e-013  6.6836e-001  0.0000e+000  5.0625e-001
 9.999990e-013  6.6967e-001  0.0000e+000  9.0000e-001
 1.249999e-012  6.6664e-001  0.0000e+000  9.0000e-001
 3.250000e-012  6.5027e-001  0.0000e+000  9.0000e-001
 5.249999e-012  6.3512e-001  0.0000e+000  9.0000e-001
 7.249999e-012  6.2185e-001  0.0000e+000  9.0000e-001
 9.249999e-012  6.0958e-001  0.0000e+000  9.0000e-001
 9.999990e-012  6.0516e-001  0.0000e+000  9.0000e-001
 1.024999e-011  7.4688e-001  2.2500e-001  9.0000e-001
 1.074999e-011  1.0330e+000  6.7500e-001  9.0000e-001
 1.099999e-011  1.1728e+000  9.0000e-001  9.0000e-001
 1.125000e-011  1.1745e+000  9.0000e-001  9.0000e-001
 1.324999e-011  1.1649e+000  9.0000e-001  9.0000e-001
 1.524999e-011  1.1555e+000  9.0000e-001  9.0000e-001
 1.724999e-011  1.1469e+000  9.0000e-001  9.0000e-001
 1.924999e-011  1.1391e+000  9.0000e-001  9.0000e-001
 1.999999e-011  1.1363e+000  9.0000e-001  9.0000e-001
 2.024999e-011  9.9942e-001  6.7500e-001  9.0000e-001
 2.074999e-011  7.1354e-001  2.2500e-001  9.0000e-001
 2.099999e-011  5.6735e-001  0.0000e+000  9.0000e-001
 2.124999e-011  5.6244e-001  0.0000e+000  9.0000e-001
 2.324999e-011  5.5484e-001  0.0000e+000  9.0000e-001
 2.524999e-011  5.4736e-001  0.0000e+000  9.0000e-001
 2.724999e-011  5.3958e-001  0.0000e+000  9.0000e-001
 2.924999e-011  5.3152e-001  0.0000e+000  9.0000e-001
 2.999999e-011  5.2844e-001  0.0000e+000  9.0000e-001
 3.024999e-011  6.6953e-001  2.2500e-001  9.0000e-001
 3.075000e-011  9.5398e-001  6.7500e-001  9.0000e-001
 3.100000e-011  1.0928e+000  9.0000e-001  9.0000e-001
 3.125000e-011  1.0944e+000  9.0000e-001  9.0000e-001
 3.325000e-011  1.0849e+000  9.0000e-001  9.0000e-001
 3.525000e-011  1.0755e+000  9.0000e-001  9.0000e-001
 3.725000e-011  1.0667e+000  9.0000e-001  9.0000e-001
 3.924999e-011  1.0582e+000  9.0000e-001  9.0000e-001
 4.124999e-011  1.0501e+000  9.0000e-001  9.0000e-001
 4.325000e-011  1.0424e+000  9.0000e-001  9.0000e-001
 4.525000e-011  1.0349e+000  9.0000e-001  9.0000e-001
 4.724999e-011  1.0277e+000  9.0000e-001  9.0000e-001
 4.924999e-011  1.0207e+000  9.0000e-001  9.0000e-001
 4.999999e-011  1.0181e+000  9.0000e-001  9.0000e-001
 5.024999e-011  8.8318e-001  6.7500e-001  9.0000e-001
 5.075000e-011  6.0152e-001  2.2500e-001  9.0000e-001
 5.099999e-011  4.5778e-001  0.0000e+000  9.0000e-001
 5.124999e-011  4.5348e-001  0.0000e+000  9.0000e-001
 5.324999e-011  4.4929e-001  0.0000e+000  9.0000e-001
 5.524999e-011  4.4490e-001  0.0000e+000  9.0000e-001
 5.724999e-011  4.3969e-001  0.0000e+000  9.0000e-001
 5.925000e-011  4.3375e-001  0.0000e+000  9.0000e-001
 5.999999e-011  4.3137e-001  0.0000e+000  9.0000e-001
 6.024999e-011  5.7130e-001  2.2500e-001  9.0000e-001
 6.074999e-011  8.5260e-001  6.7500e-001  9.0000e-001
 6.099999e-011  9.8980e-001  9.0000e-001  9.0000e-001
 6.124999e-011  9.9132e-001  9.0000e-001  9.0000e-001
 6.325000e-011  9.8253e-001  9.0000e-001  9.0000e-001
 6.525000e-011  9.7401e-001  9.0000e-001  9.0000e-001
 6.725000e-011  9.6626e-001  9.0000e-001  9.0000e-001
 6.925000e-011  9.5925e-001  9.0000e-001  9.0000e-001
 7.125000e-011  9.5293e-001  9.0000e-001  9.0000e-001
 7.325000e-011  9.4726e-001  9.0000e-001  9.0000e-001
 7.525000e-011  9.4216e-001  9.0000e-001  9.0000e-001
 7.725000e-011  9.3761e-001  9.0000e-001  9.0000e-001
 7.925000e-011  9.3355e-001  9.0000e-001  9.0000e-001
 8.125000e-011  9.2992e-001  9.0000e-001  9.0000e-001
 8.325000e-011  9.2669e-001  9.0000e-001  9.0000e-001
 8.525000e-011  9.2383e-001  9.0000e-001  9.0000e-001
 8.725000e-011  9.2127e-001  9.0000e-001  9.0000e-001
 8.925000e-011  9.1901e-001  9.0000e-001  9.0000e-001
 9.125000e-011  9.1699e-001  9.0000e-001  9.0000e-001
 9.325000e-011  9.1521e-001  9.0000e-001  9.0000e-001
 9.525000e-011  9.1362e-001  9.0000e-001  9.0000e-001
 9.725000e-011  9.1222e-001  9.0000e-001  9.0000e-001
 9.925000e-011  9.1097e-001  9.0000e-001  9.0000e-001
 9.999990e-011  9.1054e-001  9.0000e-001  9.0000e-001
 1.002499e-010  7.7690e-001  6.7500e-001  9.0000e-001
 1.007499e-010  4.9864e-001  2.2500e-001  9.0000e-001
 1.010000e-010  3.5668e-001  0.0000e+000  9.0000e-001
 1.012500e-010  3.5027e-001  0.0000e+000  6.7500e-001
 1.017500e-010  3.4637e-001  0.0000e+000  2.2500e-001
 1.020000e-010  3.4375e-001  0.0000e+000  0.0000e+000
 1.022500e-010  3.4619e-001  0.0000e+000  0.0000e+000
 1.042500e-010  3.5934e-001  0.0000e+000  0.0000e+000
 1.062500e-010  3.7186e-001  0.0000e+000  0.0000e+000
 1.082500e-010  3.8326e-001  0.0000e+000  0.0000e+000
 1.099999e-010  3.9239e-001  0.0000e+000  0.0000e+000
 1.102499e-010  5.3254e-001  2.2500e-001  0.0000e+000
 1.107500e-010  8.1336e-001  6.7500e-001  0.0000e+000
 1.110000e-010  9.4978e-001  9.0000e-001  0.0000e+000
 1.112500e-010  9.5213e-001  9.0000e-001  0.0000e+000
 1.132500e-010  9.4966e-001  9.0000e-001  0.0000e+000
 1.152500e-010  9.4727e-001  9.0000e-001  0.0000e+000
 1.172500e-010  9.4522e-001  9.0000e-001  0.0000e+000
 1.192500e-010  9.4336e-001  9.0000e-001  0.0000e+000
 1.200000e-010  9.4269e-001  9.0000e-001  0.0000e+000
 1.202500e-010  8.1005e-001  6.7500e-001  0.0000e+000
 1.207500e-010  5.3408e-001  2.2500e-001  0.0000e+000
 1.210000e-010  3.9335e-001  0.0000e+000  0.0000e+000
 1.212500e-010  3.9107e-001  0.0000e+000  0.0000e+000
 1.232500e-010  4.0268e-001  0.0000e+000  0.0000e+000
 1.252499e-010  4.1412e-001  0.0000e+000  0.0000e+000
 1.272499e-010  4.2479e-001  0.0000e+000  0.0000e+000
 1.292499e-010  4.3474e-001  0.0000e+000  0.0000e+000
 1.300000e-010  4.3831e-001  2.9081e-015  0.0000e+000
 1.302500e-010  5.7928e-001  2.2500e-001  0.0000e+000
 1.307500e-010  8.6141e-001  6.7500e-001  0.0000e+000
 1.310000e-010  9.9863e-001  9.0000e-001  0.0000e+000
 1.312500e-010  1.0009e+000  9.0000e-001  0.0000e+000
 1.332499e-010  9.9666e-001  9.0000e-001  0.0000e+000
 1.352499e-010  9.9231e-001  9.0000e-001  0.0000e+000
 1.372499e-010  9.8805e-001  9.0000e-001  0.0000e+000
 1.392499e-010  9.8391e-001  9.0000e-001  0.0000e+000
 1.412499e-010  9.7992e-001  9.0000e-001  0.0000e+000
 1.432499e-010  9.7609e-001  9.0000e-001  0.0000e+000
 1.452499e-010  9.7242e-001  9.0000e-001  0.0000e+000
 1.472499e-010  9.6893e-001  9.0000e-001  0.0000e+000
 1.492499e-010  9.6560e-001  9.0000e-001  0.0000e+000
 1.499999e-010  9.6439e-001  9.0000e-001  0.0000e+000
 1.502499e-010  8.3131e-001  6.7500e-001  0.0000e+000
 1.507500e-010  5.5456e-001  2.2500e-001  0.0000e+000
 1.510000e-010  4.1352e-001  0.0000e+000  0.0000e+000
 1.512500e-010  4.1131e-001  0.0000e+000  0.0000e+000
 1.532500e-010  4.2380e-001  0.0000e+000  0.0000e+000
 1.552499e-010  4.3615e-001  0.0000e+000  0.0000e+000
 1.572499e-010  4.4780e-001  0.0000e+000  0.0000e+000
 1.592499e-010  4.5883e-001  0.0000e+000  0.0000e+000
 1.600000e-010  4.6283e-001  0.0000e+000  0.0000e+000
 1.602500e-010  6.0422e-001  2.2500e-001  0.0000e+000
 1.607500e-010  8.8684e-001  6.7500e-001  0.0000e+000
 1.610000e-010  1.0243e+000  9.0000e-001  0.0000e+000
 1.612500e-010  1.0264e+000  9.0000e-001  0.0000e+000
 1.632499e-010  1.0206e+000  9.0000e-001  0.0000e+000
 1.652499e-010  1.0148e+000  9.0000e-001  0.0000e+000
 1.672499e-010  1.0092e+000  9.0000e-001  0.0000e+000
 1.692499e-010  1.0039e+000  9.0000e-001  0.0000e+000
 1.712499e-010  9.9878e-001  9.0000e-001  0.0000e+000
 1.732499e-010  9.9391e-001  9.0000e-001  0.0000e+000
 1.752499e-010  9.8929e-001  9.0000e-001  0.0000e+000
 1.772499e-010  9.8489e-001  9.0000e-001  0.0000e+000
 1.792499e-010  9.8072e-001  9.0000e-001  0.0000e+000
 1.812499e-010  9.7676e-001  9.0000e-001  0.0000e+000
 1.832499e-010  9.7301e-001  9.0000e-001  0.0000e+000
 1.852499e-010  9.6944e-001  9.0000e-001  0.0000e+000
 1.872499e-010  9.6606e-001  9.0000e-001  0.0000e+000
 1.892499e-010  9.6284e-001  9.0000e-001  0.0000e+000
 1.912499e-010  9.5979e-001  9.0000e-001  0.0000e+000
 1.932499e-010  9.5689e-001  9.0000e-001  0.0000e+000
 1.952499e-010  9.5414e-001  9.0000e-001  0.0000e+000
 1.972499e-010  9.5153e-001  9.0000e-001  0.0000e+000
 1.992499e-010  9.4904e-001  9.0000e-001  0.0000e+000
 2.000000e-010  9.4814e-001  9.0000e-001  0.0000e+000
 2.002500e-010  8.2072e-001  6.7500e-001  2.2500e-001
 2.007500e-010  5.4912e-001  2.2500e-001  6.7500e-001
 2.010000e-010  4.0876e-001  0.0000e+000  9.0000e-001
 2.012500e-010  4.0432e-001  0.0000e+000  9.0000e-001
 2.032500e-010  4.0073e-001  0.0000e+000  9.0000e-001
 2.052500e-010  3.9684e-001  0.0000e+000  9.0000e-001
 2.072499e-010  3.9190e-001  0.0000e+000  9.0000e-001
 2.092499e-010  3.8602e-001  0.0000e+000  9.0000e-001
 2.100000e-010  3.8360e-001  0.0000e+000  9.0000e-001
 2.102499e-010  5.2332e-001  2.2500e-001  9.0000e-001
 2.107499e-010  8.0535e-001  6.7500e-001  9.0000e-001
 2.109999e-010  9.4293e-001  9.0000e-001  9.0000e-001
 2.112499e-010  9.4502e-001  9.0000e-001  9.0000e-001
 2.132499e-010  9.4092e-001  9.0000e-001  9.0000e-001
 2.152499e-010  9.3685e-001  9.0000e-001  9.0000e-001
 2.172499e-010  9.3306e-001  9.0000e-001  9.0000e-001
 2.192499e-010  9.2957e-001  9.0000e-001  9.0000e-001
 2.199999e-010  9.2833e-001  9.0000e-001  9.0000e-001
 2.202499e-010  7.9404e-001  6.7500e-001  9.0000e-001
 2.207500e-010  5.1369e-001  2.2500e-001  9.0000e-001
 2.210000e-010  3.7060e-001  0.0000e+000  9.0000e-001
 2.212500e-010  3.6636e-001  0.0000e+000  9.0000e-001
 2.232500e-010  3.6153e-001  0.0000e+000  9.0000e-001
 2.252499e-010  3.5640e-001  0.0000e+000  9.0000e-001
 2.272499e-010  3.5026e-001  0.0000e+000  9.0000e-001
 2.292499e-010  3.4315e-001  0.0000e+000  9.0000e-001
 2.300000e-010  3.4027e-001  2.9081e-015  9.0000e-001
 2.302500e-010  4.7923e-001  2.2500e-001  9.0000e-001
 2.307500e-010  7.5989e-001  6.7500e-001  9.0000e-001
 2.310000e-010  8.9687e-001  9.0000e-001  9.0000e-001
 2.312500e-010  8.9895e-001  9.0000e-001  9.0000e-001
 2.332500e-010  8.9531e-001  9.0000e-001  9.0000e-001
 2.352500e-010  8.9164e-001  9.0000e-001  9.0000e-001
 2.372500e-010  8.8812e-001  9.0000e-001  9.0000e-001
 2.392500e-010  8.8480e-001  9.0000e-001  9.0000e-001
 2.412499e-010  8.8172e-001  9.0000e-001  9.0000e-001
 2.432499e-010  8.7893e-001  9.0000e-001  9.0000e-001
 2.452499e-010  8.7642e-001  9.0000e-001  9.0000e-001
 2.472499e-010  8.7423e-001  9.0000e-001  9.0000e-001
 2.492499e-010  8.7236e-001  9.0000e-001  9.0000e-001
 2.499999e-010  8.7174e-001  9.0000e-001  9.0000e-001
 2.502500e-010  7.3847e-001  6.7500e-001  9.0000e-001
 2.507500e-010  4.6052e-001  2.2500e-001  9.0000e-001
 2.509999e-010  3.1867e-001  1.1657e-014  9.0000e-001
 2.512500e-010  3.1476e-001  0.0000e+000  9.0000e-001
 2.532500e-010  3.1161e-001  0.0000e+000  9.0000e-001
 2.552500e-010  3.0793e-001  0.0000e+000  9.0000e-001
 2.572499e-010  3.0278e-001  0.0000e+000  9.0000e-001
 2.592499e-010  2.9630e-001  0.0000e+000  9.0000e-001
 2.600000e-010  2.9356e-001  0.0000e+000  9.0000e-001
 2.602500e-010  4.3166e-001  2.2500e-001  9.0000e-001
 2.607499e-010  7.1068e-001  6.7500e-001  9.0000e-001
 2.610000e-010  8.4692e-001  9.0000e-001  9.0000e-001
 2.612500e-010  8.4929e-001  9.0000e-001  9.0000e-001
 2.632500e-010  8.4862e-001  9.0000e-001  9.0000e-001
 2.652500e-010  8.4800e-001  9.0000e-001  9.0000e-001
 2.672500e-010  8.4763e-001  9.0000e-001  9.0000e-001
 2.692500e-010  8.4753e-001  9.0000e-001  9.0000e-001
 2.712499e-010  8.4768e-001  9.0000e-001  9.0000e-001
 2.732499e-010  8.4809e-001  9.0000e-001  9.0000e-001
 2.752499e-010  8.4874e-001  9.0000e-001  9.0000e-001
 2.772499e-010  8.4962e-001  9.0000e-001  9.0000e-001
 2.792499e-010  8.5069e-001  9.0000e-001  9.0000e-001
 2.812499e-010  8.5193e-001  9.0000e-001  9.0000e-001
 2.832499e-010  8.5331e-001  9.0000e-001  9.0000e-001
 2.852499e-010  8.5480e-001  9.0000e-001  9.0000e-001
 2.872499e-010  8.5637e-001  9.0000e-001  9.0000e-001
 2.892499e-010  8.5799e-001  9.0000e-001  9.0000e-001
 2.912499e-010  8.5965e-001  9.0000e-001  9.0000e-001
 2.932499e-010  8.6131e-001  9.0000e-001  9.0000e-001
 2.952499e-010  8.6298e-001  9.0000e-001  9.0000e-001
 2.972499e-010  8.6463e-001  9.0000e-001  9.0000e-001
 2.992499e-010  8.6625e-001  9.0000e-001  9.0000e-001
 3.000000e-010  8.6685e-001  9.0000e-001  9.0000e-001
 3.002500e-010  7.3375e-001  6.7500e-001  9.0000e-001
 3.007499e-010  4.5670e-001  2.2500e-001  9.0000e-001
 3.010000e-010  3.1517e-001  0.0000e+000  9.0000e-001
 3.012500e-010  3.0881e-001  0.0000e+000  6.7500e-001
 3.017500e-010  3.0488e-001  0.0000e+000  2.2500e-001
 3.020000e-010  3.0218e-001  0.0000e+000  1.1546e-014
 3.022500e-010  3.0473e-001  0.0000e+000  0.0000e+000
 3.042500e-010  3.1823e-001  0.0000e+000  0.0000e+000
 3.062500e-010  3.3095e-001  0.0000e+000  0.0000e+000
 3.082500e-010  3.4225e-001  0.0000e+000  0.0000e+000
 3.099999e-010  3.5105e-001  0.0000e+000  0.0000e+000
 3.102500e-010  4.9071e-001  2.2500e-001  0.0000e+000
 3.107500e-010  7.7117e-001  6.7500e-001  0.0000e+000
 3.109999e-010  9.0772e-001  9.0000e-001  0.0000e+000
 3.112500e-010  9.1041e-001  9.0000e-001  0.0000e+000
 3.132500e-010  9.1066e-001  9.0000e-001  0.0000e+000
 3.152500e-010  9.1070e-001  9.0000e-001  0.0000e+000
 3.172499e-010  9.1062e-001  9.0000e-001  0.0000e+000
 3.192499e-010  9.1047e-001  9.0000e-001  0.0000e+000
 3.200000e-010  9.1039e-001  9.0000e-001  0.0000e+000
 3.202500e-010  7.7815e-001  6.7500e-001  0.0000e+000
 3.207499e-010  5.0297e-001  2.2500e-001  0.0000e+000
 3.210000e-010  3.6262e-001  0.0000e+000  0.0000e+000
 3.212500e-010  3.6035e-001  0.0000e+000  0.0000e+000
 3.232500e-010  3.7150e-001  0.0000e+000  0.0000e+000
 3.252500e-010  3.8237e-001  0.0000e+000  0.0000e+000
 3.272500e-010  3.9226e-001  0.0000e+000  0.0000e+000
 3.292500e-010  4.0123e-001  0.0000e+000  0.0000e+000
 3.299999e-010  4.0439e-001  0.0000e+000  0.0000e+000
 3.302500e-010  5.4482e-001  2.2500e-001  0.0000e+000
 3.307500e-010  8.2643e-001  6.7500e-001  0.0000e+000
 3.310000e-010  9.6336e-001  9.0000e-001  0.0000e+000
 3.312500e-010  9.6580e-001  9.0000e-001  0.0000e+000
 3.332500e-010  9.6321e-001  9.0000e-001  0.0000e+000
 3.352500e-010  9.6050e-001  9.0000e-001  0.0000e+000
 3.372500e-010  9.5778e-001  9.0000e-001  0.0000e+000
 3.392500e-010  9.5510e-001  9.0000e-001  0.0000e+000
 3.412500e-010  9.5249e-001  9.0000e-001  0.0000e+000
 3.432500e-010  9.4997e-001  9.0000e-001  0.0000e+000
 3.452500e-010  9.4754e-001  9.0000e-001  0.0000e+000
 3.472499e-010  9.4523e-001  9.0000e-001  0.0000e+000
 3.492499e-010  9.4303e-001  9.0000e-001  0.0000e+000
 3.500000e-010  9.4224e-001  9.0000e-001  0.0000e+000
 3.502500e-010  8.0952e-001  6.7500e-001  0.0000e+000
 3.507499e-010  5.3338e-001  2.2500e-001  0.0000e+000
 3.510000e-010  3.9268e-001  0.0000e+000  0.0000e+000
 3.512500e-010  3.9052e-001  0.0000e+000  0.0000e+000
 3.532500e-010  4.0302e-001  0.0000e+000  0.0000e+000
 3.552500e-010  4.1533e-001  0.0000e+000  0.0000e+000
 3.572500e-010  4.2682e-001  0.0000e+000  0.0000e+000
 3.592500e-010  4.3757e-001  0.0000e+000  0.0000e+000
 3.600000e-010  4.4144e-001  2.3264e-014  0.0000e+000
 3.602500e-010  5.8253e-001  2.2500e-001  0.0000e+000
 3.607499e-010  8.6487e-001  6.7500e-001  0.0000e+000
 3.610000e-010  1.0022e+000  9.0000e-001  0.0000e+000
 3.612500e-010  1.0044e+000  9.0000e-001  0.0000e+000
 3.632500e-010  9.9969e-001  9.0000e-001  0.0000e+000
 3.652500e-010  9.9495e-001  9.0000e-001  0.0000e+000
 3.672500e-010  9.9036e-001  9.0000e-001  0.0000e+000
 3.692500e-010  9.8594e-001  9.0000e-001  0.0000e+000
 3.712500e-010  9.8172e-001  9.0000e-001  0.0000e+000
 3.732500e-010  9.7770e-001  9.0000e-001  0.0000e+000
 3.752500e-010  9.7387e-001  9.0000e-001  0.0000e+000
 3.772499e-010  9.7023e-001  9.0000e-001  0.0000e+000
 3.792499e-010  9.6678e-001  9.0000e-001  0.0000e+000
 3.812499e-010  9.6351e-001  9.0000e-001  0.0000e+000
 3.832499e-010  9.6040e-001  9.0000e-001  0.0000e+000
 3.852499e-010  9.5745e-001  9.0000e-001  0.0000e+000
 3.872499e-010  9.5465e-001  9.0000e-001  0.0000e+000
 3.892499e-010  9.5200e-001  9.0000e-001  0.0000e+000
 3.912499e-010  9.4948e-001  9.0000e-001  0.0000e+000
 3.932499e-010  9.4708e-001  9.0000e-001  0.0000e+000
 3.952499e-010  9.4481e-001  9.0000e-001  0.0000e+000
 3.972499e-010  9.4265e-001  9.0000e-001  0.0000e+000
 3.992499e-010  9.4060e-001  9.0000e-001  0.0000e+000
 4.000000e-010  9.3985e-001  9.0000e-001  0.0000e+000
 4.002500e-010  8.1255e-001  6.7500e-001  2.2500e-001
 4.007500e-010  5.4122e-001  2.2500e-001  6.7500e-001
 4.010000e-010  4.0100e-001  0.0000e+000  9.0000e-001
 4.012500e-010  3.9661e-001  0.0000e+000  9.0000e-001
 4.032500e-010  3.9325e-001  0.0000e+000  9.0000e-001
 4.052500e-010  3.8955e-001  0.0000e+000  9.0000e-001
 4.072500e-010  3.8475e-001  0.0000e+000  9.0000e-001
 4.092500e-010  3.7895e-001  0.0000e+000  9.0000e-001
 4.100000e-010  3.7656e-001  1.8902e-014  9.0000e-001
 4.102500e-010  5.1619e-001  2.2500e-001  9.0000e-001
 4.107499e-010  7.9806e-001  6.7500e-001  9.0000e-001
 4.110000e-010  9.3556e-001  9.0000e-001  9.0000e-001
 4.112500e-010  9.3766e-001  9.0000e-001  9.0000e-001
 4.132500e-010  9.3375e-001  9.0000e-001  9.0000e-001
 4.152500e-010  9.2986e-001  9.0000e-001  9.0000e-001
 4.172500e-010  9.2621e-001  9.0000e-001  9.0000e-001
 4.192500e-010  9.2285e-001  9.0000e-001  9.0000e-001
 4.200000e-010  9.2166e-001  9.0000e-001  9.0000e-001
 4.202500e-010  7.8746e-001  6.7500e-001  9.0000e-001
 4.207500e-010  5.0730e-001  2.2500e-001  9.0000e-001
 4.209999e-010  3.6431e-001  1.4544e-014  9.0000e-001
 4.212500e-010  3.6009e-001  0.0000e+000  9.0000e-001
 4.232500e-010  3.5531e-001  0.0000e+000  9.0000e-001
 4.252500e-010  3.5022e-001  0.0000e+000  9.0000e-001
 4.272500e-010  3.4406e-001  0.0000e+000  9.0000e-001
 4.292499e-010  3.3691e-001  0.0000e+000  9.0000e-001
